开空调
18 06 00 0C 00 01 8A 00


读取空调状体
18 03 00 0C 00 01 46 00

关空调
18 06 00 0C 00 00 4B C0

制冷允许开
18 06 00 0E 00 01 2B C0 
18 03 00 0E 00 01 E7 C0


制冷允许关
18 06 00 0E 00 00 EA 00


循环开关开
18 06 00 0D 00 01 DB C0

循环开关关
18 06 00 0D 00 00 1A 00


温度设定25(2500)
18 06 00 0A 09 C4 AC 02

800

18 06 00 0A 03 20 AA E9


时间设定值
18 06 00 0B 00 12 7A 0C 
18 03 00 0B 00 01 F7 C1




18 06 00 10 00 00 8A 06


18 03 00 10 00 01 87 C6